<Qucs Dataset 1.0.1>
<indep frequency 101>
1.000000000000e+00
1.122018454302e+00
1.258925411794e+00
1.412537544623e+00
1.584893192461e+00
1.778279410039e+00
1.995262314969e+00
2.238721138568e+00
2.511886431510e+00
2.818382931264e+00
3.162277660168e+00
3.548133892336e+00
3.981071705535e+00
4.466835921510e+00
5.011872336273e+00
5.623413251903e+00
6.309573444802e+00
7.079457843841e+00
7.943282347243e+00
8.912509381337e+00
1.000000000000e+01
1.122018454302e+01
1.258925411794e+01
1.412537544623e+01
1.584893192461e+01
1.778279410039e+01
1.995262314969e+01
2.238721138568e+01
2.511886431510e+01
2.818382931264e+01
3.162277660168e+01
3.548133892336e+01
3.981071705535e+01
4.466835921510e+01
5.011872336273e+01
5.623413251903e+01
6.309573444802e+01
7.079457843841e+01
7.943282347243e+01
8.912509381337e+01
1.000000000000e+02
1.122018454302e+02
1.258925411794e+02
1.412537544623e+02
1.584893192461e+02
1.778279410039e+02
1.995262314969e+02
2.238721138568e+02
2.511886431510e+02
2.818382931264e+02
3.162277660168e+02
3.548133892336e+02
3.981071705535e+02
4.466835921510e+02
5.011872336273e+02
5.623413251903e+02
6.309573444802e+02
7.079457843841e+02
7.943282347243e+02
8.912509381337e+02
1.000000000000e+03
1.122018454302e+03
1.258925411794e+03
1.412537544623e+03
1.584893192461e+03
1.778279410039e+03
1.995262314969e+03
2.238721138568e+03
2.511886431510e+03
2.818382931264e+03
3.162277660168e+03
3.548133892336e+03
3.981071705535e+03
4.466835921510e+03
5.011872336273e+03
5.623413251903e+03
6.309573444802e+03
7.079457843841e+03
7.943282347243e+03
8.912509381337e+03
1.000000000000e+04
1.122018454302e+04
1.258925411794e+04
1.412537544623e+04
1.584893192461e+04
1.778279410039e+04
1.995262314969e+04
2.238721138568e+04
2.511886431510e+04
2.818382931264e+04
3.162277660168e+04
3.548133892336e+04
3.981071705535e+04
4.466835921510e+04
5.011872336273e+04
5.623413251903e+04
6.309573444802e+04
7.079457843841e+04
7.943282347243e+04
8.912509381337e+04
1.000000000000e+05
</indep>
<dep ac.v(vn1) frequency>
1.000000000000e+00+j0.000000000000e+00
1.000000000000e+00+j0.000000000000e+00
1.000000000000e+00+j0.000000000000e+00
1.000000000000e+00+j0.000000000000e+00
1.000000000000e+00+j0.000000000000e+00
1.000000000000e+00+j0.000000000000e+00
1.000000000000e+00+j0.000000000000e+00
1.000000000000e+00+j0.000000000000e+00
1.000000000000e+00+j0.000000000000e+00
1.000000000000e+00+j0.000000000000e+00
1.000000000000e+00+j0.000000000000e+00
1.000000000000e+00+j0.000000000000e+00
1.000000000000e+00+j0.000000000000e+00
1.000000000000e+00+j0.000000000000e+00
1.000000000000e+00+j0.000000000000e+00
1.000000000000e+00+j0.000000000000e+00
1.000000000000e+00+j0.000000000000e+00
1.000000000000e+00+j0.000000000000e+00
1.000000000000e+00+j0.000000000000e+00
1.000000000000e+00+j0.000000000000e+00
1.000000000000e+00+j0.000000000000e+00
1.000000000000e+00+j0.000000000000e+00
1.000000000000e+00+j0.000000000000e+00
1.000000000000e+00+j0.000000000000e+00
1.000000000000e+00+j0.000000000000e+00
1.000000000000e+00+j0.000000000000e+00
1.000000000000e+00+j0.000000000000e+00
1.000000000000e+00+j0.000000000000e+00
1.000000000000e+00+j0.000000000000e+00
1.000000000000e+00+j0.000000000000e+00
1.000000000000e+00+j0.000000000000e+00
1.000000000000e+00+j0.000000000000e+00
1.000000000000e+00+j0.000000000000e+00
1.000000000000e+00+j0.000000000000e+00
1.000000000000e+00+j0.000000000000e+00
1.000000000000e+00+j0.000000000000e+00
1.000000000000e+00+j0.000000000000e+00
1.000000000000e+00+j0.000000000000e+00
1.000000000000e+00+j0.000000000000e+00
1.000000000000e+00+j0.000000000000e+00
1.000000000000e+00+j0.000000000000e+00
1.000000000000e+00+j0.000000000000e+00
1.000000000000e+00+j0.000000000000e+00
1.000000000000e+00+j0.000000000000e+00
1.000000000000e+00+j0.000000000000e+00
1.000000000000e+00+j0.000000000000e+00
1.000000000000e+00+j0.000000000000e+00
1.000000000000e+00+j0.000000000000e+00
1.000000000000e+00+j0.000000000000e+00
1.000000000000e+00+j0.000000000000e+00
1.000000000000e+00+j0.000000000000e+00
1.000000000000e+00+j0.000000000000e+00
1.000000000000e+00+j0.000000000000e+00
1.000000000000e+00+j0.000000000000e+00
1.000000000000e+00+j0.000000000000e+00
1.000000000000e+00+j0.000000000000e+00
1.000000000000e+00+j0.000000000000e+00
1.000000000000e+00+j0.000000000000e+00
1.000000000000e+00+j0.000000000000e+00
1.000000000000e+00+j0.000000000000e+00
1.000000000000e+00+j0.000000000000e+00
1.000000000000e+00+j0.000000000000e+00
1.000000000000e+00+j0.000000000000e+00
1.000000000000e+00+j0.000000000000e+00
1.000000000000e+00+j0.000000000000e+00
1.000000000000e+00+j0.000000000000e+00
1.000000000000e+00+j0.000000000000e+00
1.000000000000e+00+j0.000000000000e+00
1.000000000000e+00+j0.000000000000e+00
1.000000000000e+00+j0.000000000000e+00
1.000000000000e+00+j0.000000000000e+00
1.000000000000e+00+j0.000000000000e+00
1.000000000000e+00+j0.000000000000e+00
1.000000000000e+00+j0.000000000000e+00
1.000000000000e+00+j0.000000000000e+00
1.000000000000e+00+j0.000000000000e+00
1.000000000000e+00+j0.000000000000e+00
1.000000000000e+00+j0.000000000000e+00
1.000000000000e+00+j0.000000000000e+00
1.000000000000e+00+j0.000000000000e+00
1.000000000000e+00+j0.000000000000e+00
1.000000000000e+00+j0.000000000000e+00
1.000000000000e+00+j0.000000000000e+00
1.000000000000e+00+j0.000000000000e+00
1.000000000000e+00+j0.000000000000e+00
1.000000000000e+00+j0.000000000000e+00
1.000000000000e+00+j0.000000000000e+00
1.000000000000e+00+j0.000000000000e+00
1.000000000000e+00+j0.000000000000e+00
1.000000000000e+00+j0.000000000000e+00
1.000000000000e+00+j0.000000000000e+00
1.000000000000e+00+j0.000000000000e+00
1.000000000000e+00+j0.000000000000e+00
1.000000000000e+00+j0.000000000000e+00
1.000000000000e+00+j0.000000000000e+00
1.000000000000e+00+j0.000000000000e+00
1.000000000000e+00+j0.000000000000e+00
1.000000000000e+00+j0.000000000000e+00
1.000000000000e+00+j0.000000000000e+00
1.000000000000e+00+j0.000000000000e+00
1.000000000000e+00+j0.000000000000e+00
</dep>
<dep ac.v(vn3) frequency>
9.999605231409e-01-j6.282937266758e-03
9.999503020869e-01-j7.049499503628e-03
9.999374348393e-01-j7.909566755942e-03
9.999212364053e-01-j8.874536100789e-03
9.999008445313e-01-j9.957190212551e-03
9.998751738655e-01-j1.117186434648e-02
9.998428582861e-01-j1.253463283812e-02
9.998021783521e-01-j1.406351714613e-02
9.997509700560e-01-j1.577871756784e-02
9.996865100891e-01-j1.770287081202e-02
9.996053716170e-01-j1.986133559059e-02
9.995032430587e-01-j2.228250824826e-02
9.993747004910e-01-j2.499817012316e-02
9.992129219908e-01-j2.804386773339e-02
9.990093293863e-01-j3.145932588935e-02
9.987531394217e-01-j3.528889226118e-02
9.984308021389e-01-j3.958200953904e-02
9.980252992677e-01-j4.439370776674e-02
9.975152695107e-01-j4.978510423540e-02
9.968739208394e-01-j5.582389085058e-02
9.960676824072e-01-j6.258477827057e-02
9.950545408077e-01-j7.014985121628e-02
9.937819979329e-01-j7.860876870528e-02
9.921845820004e-01-j8.805871473700e-02
9.901808418263e-01-j9.860396699145e-02
9.876697610170e-01-j1.103549010677e-01
9.845265495376e-01-j1.234261835804e-01
9.805978142707e-01-j1.379338280417e-01
9.756961908471e-01-j1.539906945680e-01
9.695946540587e-01-j1.716999151994e-01
9.620209357542e-01-j1.911456379959e-01
9.526527912747e-01-j2.123804382499e-01
9.411152867478e-01-j2.354088014442e-01
9.269818278368e-01-j2.601663289074e-01
9.097812664020e-01-j2.864948755318e-01
8.890139687692e-01-j3.141148390357e-01
8.641799400944e-01-j3.425973894133e-01
8.348215494853e-01-j3.713415274384e-01
8.005815582254e-01-j3.995631700429e-01
7.612735761182e-01-j4.263051939895e-01
7.169568003249e-01-j4.504772433684e-01
6.680009623408e-01-j4.709306495150e-01
6.151231395586e-01-j4.865661956385e-01
5.593786009437e-01-j4.964616619135e-01
5.020954917242e-01-j4.999956088952e-01
4.447573202504e-01-j4.969388758530e-01
3.888532701177e-01-j4.874899018815e-01
3.357273050671e-01-j4.722440912277e-01
2.864574583735e-01-j4.521057209500e-01
2.417863849393e-01-j4.281655392454e-01
2.021083228644e-01-j4.015725945496e-01
1.675031126119e-01-j3.734244500260e-01
1.377997439990e-01-j3.446896786282e-01
1.126509254707e-01-j3.161656123953e-01
9.160419896211e-02-j2.884664099936e-01
7.416102482736e-02-j2.620327598296e-01
5.982062976643e-02-j2.371542156926e-01
4.810912170924e-02-j2.139968086622e-01
3.859633238789e-02-j1.926308789216e-01
3.090347378068e-02-j1.730562021107e-01
2.470452303186e-02-j1.552230961346e-01
1.972371682572e-02-j1.390492424298e-01
1.573091939939e-02-j1.244325422638e-01
1.253607272154e-02-j1.112605932137e-01
9.983497127713e-03-j9.941743766973e-02
7.946490365065e-03-j8.878819547633e-02
6.322454886316e-03-j7.926210601874e-02
5.028643427752e-03-j7.073440586468e-02
3.998528935459e-03-j6.310737438534e-02
3.178758592608e-03-j5.629079930519e-02
2.526629563608e-03-j5.020204882927e-02
2.008016679707e-03-j4.476588599281e-02
1.595683349481e-03-j3.991412211398e-02
1.267912450570e-03-j3.558517737187e-02
1.007401362520e-03-j3.172359539860e-02
8.003731784826e-04-j2.827954351219e-02
6.358636861542e-04-j2.520831933166e-02
5.051505425354e-04-j2.246987684579e-02
4.012970315590e-04-j2.002837967114e-02
3.187878739850e-04-j1.785178557670e-02
2.532388129652e-04-j1.591146388830e-02
2.011652167703e-04-j1.418184576583e-02
1.597978230010e-04-j1.264010631509e-02
1.269360945262e-04-j1.126587687462e-02
1.008315563145e-04-j1.004098547513e-02
8.009501315850e-05-j8.949223315314e-03
6.362277848843e-05-j7.976135068470e-03
5.053803063577e-05-j7.108830884416e-03
4.014420193007e-05-j6.335818050822e-03
3.188793633719e-05-j5.646850405023e-03
2.532965430295e-05-j5.032793728294e-03
2.012016440654e-05-j4.485505499442e-03
1.598208081165e-05-j3.997727527577e-03
1.269505976780e-05-j3.562990121128e-03
1.008407074474e-05-j3.175526579365e-03
8.010078726475e-06-j2.830196912781e-03
6.362642176919e-06-j2.522419809172e-03
5.054032942362e-06-j2.248111963207e-03
4.014565238372e-06-j2.003633978959e-03
3.188885151989e-06-j1.785742137880e-03
2.533023174836e-06-j1.591545399487e-03
</dep>
<indep time 1009>
0.000000000000e+00
9.990010000000e-08
1.998002000000e-07
3.996004000000e-07
7.992008000000e-07
1.598401600000e-06
3.196803200000e-06
6.393606400000e-06
1.278721280000e-05
2.277722280000e-05
3.276723280000e-05
4.275724280000e-05
5.274725280000e-05
6.273726280000e-05
7.272727280000e-05
8.271728280000e-05
9.270729280000e-05
1.026973028000e-04
1.126873128000e-04
1.226773228000e-04
1.326673328000e-04
1.426573428000e-04
1.526473528000e-04
1.626373628000e-04
1.726273728000e-04
1.826173828000e-04
1.926073928000e-04
2.025974028000e-04
2.125874128000e-04
2.225774228000e-04
2.325674328000e-04
2.425574428000e-04
2.525474528000e-04
2.625374628000e-04
2.725274728000e-04
2.825174828000e-04
2.925074928000e-04
3.024975028000e-04
3.124875128000e-04
3.224775228000e-04
3.324675328000e-04
3.424575428000e-04
3.524475528000e-04
3.624375628000e-04
3.724275728000e-04
3.824175828000e-04
3.924075928000e-04
4.023976028000e-04
4.123876128000e-04
4.223776228000e-04
4.323676328000e-04
4.423576428000e-04
4.523476528000e-04
4.623376628000e-04
4.723276728000e-04
4.823176828000e-04
4.923076928000e-04
5.022977028000e-04
5.122877128000e-04
5.222777228000e-04
5.322677328000e-04
5.422577428000e-04
5.522477528000e-04
5.622377628000e-04
5.722277728000e-04
5.822177828000e-04
5.922077928000e-04
6.021978028000e-04
6.121878128000e-04
6.221778228000e-04
6.321678328000e-04
6.421578428000e-04
6.521478528000e-04
6.621378628000e-04
6.721278728000e-04
6.821178828000e-04
6.921078928000e-04
7.020979028000e-04
7.120879128000e-04
7.220779228000e-04
7.320679328000e-04
7.420579428000e-04
7.520479528000e-04
7.620379628000e-04
7.720279728000e-04
7.820179828000e-04
7.920079928000e-04
8.019980028000e-04
8.119880128000e-04
8.219780228000e-04
8.319680328000e-04
8.419580428000e-04
8.519480528000e-04
8.619380628000e-04
8.719280728000e-04
8.819180828000e-04
8.919080928000e-04
9.018981028000e-04
9.118881128000e-04
9.218781228000e-04
9.318681328000e-04
9.418581428000e-04
9.518481528000e-04
9.618381628000e-04
9.718281728000e-04
9.818181828000e-04
9.918081928000e-04
1.001798202800e-03
1.011788212800e-03
1.021778222800e-03
1.031768232800e-03
1.041758242800e-03
1.051748252800e-03
1.061738262800e-03
1.071728272800e-03
1.081718282800e-03
1.091708292800e-03
1.101698302800e-03
1.111688312800e-03
1.121678322800e-03
1.131668332800e-03
1.141658342800e-03
1.151648352800e-03
1.161638362800e-03
1.171628372800e-03
1.181618382800e-03
1.191608392800e-03
1.201598402800e-03
1.211588412800e-03
1.221578422800e-03
1.231568432800e-03
1.241558442800e-03
1.251548452800e-03
1.261538462800e-03
1.271528472800e-03
1.281518482800e-03
1.291508492800e-03
1.301498502800e-03
1.311488512800e-03
1.321478522800e-03
1.331468532800e-03
1.341458542800e-03
1.351448552800e-03
1.361438562800e-03
1.371428572800e-03
1.381418582800e-03
1.391408592800e-03
1.401398602800e-03
1.411388612800e-03
1.421378622800e-03
1.431368632800e-03
1.441358642800e-03
1.451348652800e-03
1.461338662800e-03
1.471328672800e-03
1.481318682800e-03
1.491308692800e-03
1.501298702800e-03
1.511288712800e-03
1.521278722800e-03
1.531268732800e-03
1.541258742800e-03
1.551248752800e-03
1.561238762800e-03
1.571228772800e-03
1.581218782800e-03
1.591208792800e-03
1.601198802800e-03
1.611188812800e-03
1.621178822800e-03
1.631168832800e-03
1.641158842800e-03
1.651148852800e-03
1.661138862800e-03
1.671128872800e-03
1.681118882800e-03
1.691108892800e-03
1.701098902800e-03
1.711088912800e-03
1.721078922800e-03
1.731068932800e-03
1.741058942800e-03
1.751048952800e-03
1.761038962800e-03
1.771028972800e-03
1.781018982800e-03
1.791008992800e-03
1.800999002800e-03
1.810989012800e-03
1.820979022800e-03
1.830969032800e-03
1.840959042800e-03
1.850949052800e-03
1.860939062800e-03
1.870929072800e-03
1.880919082800e-03
1.890909092800e-03
1.900899102800e-03
1.910889112800e-03
1.920879122800e-03
1.930869132800e-03
1.940859142800e-03
1.950849152800e-03
1.960839162800e-03
1.970829172800e-03
1.980819182800e-03
1.990809192800e-03
2.000799202800e-03
2.010789212800e-03
2.020779222800e-03
2.030769232800e-03
2.040759242800e-03
2.050749252800e-03
2.060739262800e-03
2.070729272800e-03
2.080719282800e-03
2.090709292800e-03
2.100699302800e-03
2.110689312800e-03
2.120679322800e-03
2.130669332800e-03
2.140659342800e-03
2.150649352800e-03
2.160639362800e-03
2.170629372800e-03
2.180619382800e-03
2.190609392800e-03
2.200599402800e-03
2.210589412800e-03
2.220579422800e-03
2.230569432800e-03
2.240559442800e-03
2.250549452800e-03
2.260539462800e-03
2.270529472800e-03
2.280519482800e-03
2.290509492800e-03
2.300499502800e-03
2.310489512800e-03
2.320479522800e-03
2.330469532800e-03
2.340459542800e-03
2.350449552800e-03
2.360439562800e-03
2.370429572800e-03
2.380419582800e-03
2.390409592800e-03
2.400399602800e-03
2.410389612800e-03
2.420379622800e-03
2.430369632800e-03
2.440359642800e-03
2.450349652800e-03
2.460339662800e-03
2.470329672800e-03
2.480319682800e-03
2.490309692800e-03
2.500299702800e-03
2.510289712800e-03
2.520279722800e-03
2.530269732800e-03
2.540259742800e-03
2.550249752800e-03
2.560239762800e-03
2.570229772800e-03
2.580219782800e-03
2.590209792800e-03
2.600199802800e-03
2.610189812800e-03
2.620179822800e-03
2.630169832800e-03
2.640159842800e-03
2.650149852800e-03
2.660139862800e-03
2.670129872800e-03
2.680119882800e-03
2.690109892800e-03
2.700099902800e-03
2.710089912800e-03
2.720079922800e-03
2.730069932800e-03
2.740059942800e-03
2.750049952800e-03
2.760039962800e-03
2.770029972800e-03
2.780019982800e-03
2.790009992800e-03
2.800000002800e-03
2.809990012800e-03
2.819980022800e-03
2.829970032800e-03
2.839960042800e-03
2.849950052800e-03
2.859940062800e-03
2.869930072800e-03
2.879920082800e-03
2.889910092800e-03
2.899900102800e-03
2.909890112800e-03
2.919880122800e-03
2.929870132800e-03
2.939860142800e-03
2.949850152800e-03
2.959840162800e-03
2.969830172800e-03
2.979820182800e-03
2.989810192800e-03
2.999800202800e-03
3.009790212800e-03
3.019780222800e-03
3.029770232800e-03
3.039760242800e-03
3.049750252800e-03
3.059740262800e-03
3.069730272800e-03
3.079720282800e-03
3.089710292800e-03
3.099700302800e-03
3.109690312800e-03
3.119680322800e-03
3.129670332800e-03
3.139660342800e-03
3.149650352800e-03
3.159640362800e-03
3.169630372800e-03
3.179620382800e-03
3.189610392800e-03
3.199600402800e-03
3.209590412800e-03
3.219580422800e-03
3.229570432800e-03
3.239560442800e-03
3.249550452800e-03
3.259540462800e-03
3.269530472800e-03
3.279520482800e-03
3.289510492800e-03
3.299500502800e-03
3.309490512800e-03
3.319480522800e-03
3.329470532800e-03
3.339460542800e-03
3.349450552800e-03
3.359440562800e-03
3.369430572800e-03
3.379420582800e-03
3.389410592800e-03
3.399400602800e-03
3.409390612800e-03
3.419380622800e-03
3.429370632800e-03
3.439360642800e-03
3.449350652800e-03
3.459340662800e-03
3.469330672800e-03
3.479320682800e-03
3.489310692800e-03
3.499300702800e-03
3.509290712800e-03
3.519280722800e-03
3.529270732800e-03
3.539260742800e-03
3.549250752800e-03
3.559240762800e-03
3.569230772800e-03
3.579220782800e-03
3.589210792800e-03
3.599200802800e-03
3.609190812800e-03
3.619180822800e-03
3.629170832800e-03
3.639160842800e-03
3.649150852800e-03
3.659140862800e-03
3.669130872800e-03
3.679120882800e-03
3.689110892800e-03
3.699100902800e-03
3.709090912800e-03
3.719080922800e-03
3.729070932800e-03
3.739060942800e-03
3.749050952800e-03
3.759040962800e-03
3.769030972800e-03
3.779020982800e-03
3.789010992800e-03
3.799001002800e-03
3.808991012800e-03
3.818981022800e-03
3.828971032800e-03
3.838961042800e-03
3.848951052800e-03
3.858941062800e-03
3.868931072800e-03
3.878921082800e-03
3.888911092800e-03
3.898901102800e-03
3.908891112800e-03
3.918881122800e-03
3.928871132800e-03
3.938861142800e-03
3.948851152800e-03
3.958841162800e-03
3.968831172800e-03
3.978821182800e-03
3.988811192800e-03
3.998801202800e-03
4.008791212800e-03
4.018781222800e-03
4.028771232800e-03
4.038761242800e-03
4.048751252800e-03
4.058741262800e-03
4.068731272800e-03
4.078721282800e-03
4.088711292800e-03
4.098701302800e-03
4.108691312800e-03
4.118681322800e-03
4.128671332800e-03
4.138661342800e-03
4.148651352800e-03
4.158641362800e-03
4.168631372800e-03
4.178621382800e-03
4.188611392800e-03
4.198601402800e-03
4.208591412800e-03
4.218581422800e-03
4.228571432800e-03
4.238561442800e-03
4.248551452800e-03
4.258541462800e-03
4.268531472800e-03
4.278521482800e-03
4.288511492800e-03
4.298501502800e-03
4.308491512800e-03
4.318481522800e-03
4.328471532800e-03
4.338461542800e-03
4.348451552800e-03
4.358441562800e-03
4.368431572800e-03
4.378421582800e-03
4.388411592800e-03
4.398401602800e-03
4.408391612800e-03
4.418381622800e-03
4.428371632800e-03
4.438361642800e-03
4.448351652800e-03
4.458341662800e-03
4.468331672800e-03
4.478321682800e-03
4.488311692800e-03
4.498301702800e-03
4.508291712800e-03
4.518281722800e-03
4.528271732800e-03
4.538261742800e-03
4.548251752800e-03
4.558241762800e-03
4.568231772800e-03
4.578221782800e-03
4.588211792800e-03
4.598201802800e-03
4.608191812800e-03
4.618181822800e-03
4.628171832800e-03
4.638161842800e-03
4.648151852800e-03
4.658141862800e-03
4.668131872800e-03
4.678121882800e-03
4.688111892800e-03
4.698101902800e-03
4.708091912800e-03
4.718081922800e-03
4.728071932800e-03
4.738061942800e-03
4.748051952800e-03
4.758041962800e-03
4.768031972800e-03
4.778021982800e-03
4.788011992800e-03
4.798002002800e-03
4.807992012800e-03
4.817982022800e-03
4.827972032800e-03
4.837962042800e-03
4.847952052800e-03
4.857942062800e-03
4.867932072800e-03
4.877922082800e-03
4.887912092800e-03
4.897902102800e-03
4.907892112800e-03
4.917882122800e-03
4.927872132800e-03
4.937862142800e-03
4.947852152800e-03
4.957842162800e-03
4.967832172800e-03
4.977822182800e-03
4.987812192800e-03
4.997802202800e-03
5.007792212800e-03
5.017782222800e-03
5.027772232800e-03
5.037762242800e-03
5.047752252800e-03
5.057742262800e-03
5.067732272800e-03
5.077722282800e-03
5.087712292800e-03
5.097702302800e-03
5.107692312800e-03
5.117682322800e-03
5.127672332800e-03
5.137662342800e-03
5.147652352800e-03
5.157642362800e-03
5.167632372800e-03
5.177622382800e-03
5.187612392800e-03
5.197602402800e-03
5.207592412800e-03
